(1553765154.408456) vcan0 1cECFFF4#20300007fF92FF00
(1553765154.408466) vcan0 1CEBFFF4#013D3D3D3D323232
(1553765154.408476) vcan0 1CEBFFF4#023D3D3D3D323232
(1553765154.408486) vcan0 1CEBFFF4#033D3D3D3D323232
(1553765154.408496) vcan0 1CEBFFF4#043D3D3D3D323232
(1553765154.408506) vcan0 1CEBFFF4#053D3D3D3D323232
(1553765154.408516) vcan0 1CEBFFF4#063D3D3D3D323232
(1553765154.408526) vcan0 1CEBFFF4#073D3D3D3D323232
(1553765155.408526) vcan0 1CECFFF4#20500130FF91FF00
(1553765154.408526) vcan0 1CEBFFF4#0175121D1020101B
(1553765154.408526) vcan0 1CEBFFF4#021021101A102010
(1553765154.408526) vcan0 1CEBFFF4#031A101D101A1021
(1553765154.408526) vcan0 1CEBFFF4#04101A1020101A10
(1553765154.408526) vcan0 1CEBFFF4#051F101F1020101D
(1553765154.408526) vcan0 1CEBFFF4#06101E101B101E10
(1553765154.408526) vcan0 1CEBFFF4#071F102310201022
(1553765154.408526) vcan0 1CEBFFF4#0810201020101E10
(1553765154.408526) vcan0 1CEBFFF4#0917101710161018
(1553765154.408526) vcan0 1CEBFFF4#0A10151017101410
(1553765154.408526) vcan0 1CEBFFF4#0B15101710141014
(1553765154.408526) vcan0 1CEBFFF4#0C15101710141014
(1553765154.408526) vcan0 1CEBFFF4#0D1D101E101E101D
(1553765154.408526) vcan0 1CEBFFF4#0E1D101E101E101D
(1553765154.408526) vcan0 1CEBFFF4#0F1D102210201020
(1553765154.408526) vcan0 1CEBFFF4#1010201021102110
(1553765154.408526) vcan0 1CEBFFF4#112110201021101E
(1553765154.408526) vcan0 1CEBFFF4#122110201021101E
(1553765154.408526) vcan0 1CEBFFF4#131B101D101A101E
(1553765154.408526) vcan0 1CEBFFF4#14101D101D101E10
(1553765154.408526) vcan0 1CEBFFF4#151D101D10201018
(1553765154.408526) vcan0 1CEBFFF4#16101F101A102010
(1553765154.408526) vcan0 1CEBFFF4#171D101E101B1020
(1553765154.408526) vcan0 1CEBFFF4#18101A1020101B10
(1553765154.408526) vcan0 1CEBFFF4#1920102010201021
(1553765154.408526) vcan0 1CEBFFF4#1A1023101E102010
(1553765154.408526) vcan0 1CEBFFF4#1B1B101C101C101D
(1553765154.408526) vcan0 1CEBFFF4#1C101B101E101910
(1553765154.408526) vcan0 1CEBFFF4#1D20101F1020101D
(1553765154.408526) vcan0 1CEBFFF4#1E1021101E102010
(1553765154.408526) vcan0 1CEBFFF4#1F1B101B1019101D
(1553765154.408526) vcan0 1CEBFFF4#20101A101E101B10
(1553765154.408526) vcan0 1CEBFFF4#211D101D101D1017
(1553765154.408526) vcan0 1CEBFFF4#22101D101A101E10
(1553765154.408526) vcan0 1CEBFFF4#231A101A101E101B
(1553765154.408526) vcan0 1CEBFFF4#24101A101E101D10
(1553765154.408526) vcan0 1CEBFFF4#251A101A101E101B
(1553765154.408526) vcan0 1CEBFFF4#26101C101B101A10
(1553765154.408526) vcan0 1CEBFFF4#2719101E101D101A
(1553765154.408526) vcan0 1CEBFFF4#2810171018101710
(1553765154.408526) vcan0 1CEBFFF4#291E101E1021101E
(1553765154.408526) vcan0 1CEBFFF4#2A1020101B101E10
(1553765154.408526) vcan0 1CEBFFF4#2B1020101B101E10
(1553765154.408526) vcan0 1CEBFFF4#2C101B101E101B10
(1553765154.408526) vcan0 1CEBFFF4#2D06100610061002
(1553765154.408526) vcan0 1CEBFFF4#2E10061003100610
(1553765154.408526) vcan0 1CEBFFF4#2F05100810051008
(1553765154.408526) vcan0 1CEBFFF4#3010061008100510
(1553765154.408256) vcan0 0CFF0022#0000000000000002
(1553765154.508256) vcan0 0CFF0022#000000000000C102
(1553765154.608256) vcan0 0CFF0022#000000000000A906
(1553765154.708256) vcan0 0CFF0022#0000000000002E16
(1553765154.808256) vcan0 0CFF0022#000000000000861B
(1553765154.908256) vcan0 0CFF0022#000000000000C62A
(1553765155.008356) vcan0 18FF90F4#901AC4095D016B1B
(1553765155.108357) vcan0 18FF95F4#87137D960F5AFC03

